ID сеанса:252580
Время сеанса:Fri Nov 17 20:23:00 2023



Адрес: 53
Счётчики:
	1: 1
	2: 2
	3: 3

Веса импульсов: 
	1: 5
	2: 5
	3: 5




Начало сеанса записи

Master >>35 03 00 00 00 01 80 7E 
Slave  >>35 03 08 32 32 34 34 32 30 35 33 02 AB 
Ключ для записи значений: 32 32 34 34 32 30 35 33 
Master >>35 03 15 7E 00 02 A4 6B 
Slave  >>35 03 04 1D 85 CB 3F 8F 55 
Master >>35 03 15 80 00 02 C5 9B 
Slave  >>35 03 04 B7 F3 FD 3C 18 F6 
Master >>35 03 15 82 00 02 64 5B 
Slave  >>35 03 04 00 00 00 00 8F F0 
Старые показания 1: 1.589999794960022
Старые показания 2: 0.03100000135600567
Старые показания 3: 0.0
Master >>35 10 15 49 00 01 02 53 00 B6 F9 
Slave  >>
Master >>35 10 16 8C 00 04 08 32 32 34 34 32 30 35 33 DA 19 
Slave  >>
Master >>35 10 16 7A 00 04 08 3A 0A 17 BF 1C F7 19 00 6E 39 
Slave  >>
Master >>35 10 16 8C 00 04 08 32 32 34 34 32 30 35 33 DA 19 
Slave  >>
Master >>35 10 16 7C 00 04 08 31 08 FC 3F 1C F7 19 00 12 87 
Slave  >>
Master >>35 10 16 8C 00 04 08 32 32 34 34 32 30 35 33 DA 19 
Slave  >>
Master >>35 10 16 7E 00 04 08 00 00 40 40 1C F7 19 00 AF 6E 
Slave  >>
Master >>35 10 15 49 00 01 02 00 00 8A 09 
Slave  >>


Запись показаний завершена

Начинается запись весов
Master >>35 10 15 49 00 01 02 53 00 B6 F9 
Slave  >>35 10 15 49 00 01 D0 67 
Master >>35 03 15 07 00 01 35 B3 
Slave  >>35 03 60 01 0A D7 23 3C 00 00 C0 40 00 00 80 3F 01 00 00 80 3F 06 01 00 00 00 00 00 24 74 49 00 00 20 41 03 00 00 00 00 06 01 00 00 00 00 00 24 74 49 00 00 20 41 03 00 00 00 00 06 01 00 00 00 00 00 24 74 49 00 00 20 41 03 00 00 00 00 06 01 0A D7 23 3C 00 00 C0 40 00 00 80 3F 01 00 00 80 3F 06 00 10 
Старое значение весов 1: 10.0
Старое значение весов 2: 10.0
Старое значение весов 3: 10.0
Master >>35 10 15 07 00 4C 98 01 0A D7 23 3C 00 00 C0 40 00 00 80 3F 01 00 00 80 3F 06 01 00 00 00 00 00 24 74 49 00 00 A0 40 03 00 00 00 00 06 01 00 00 00 00 00 24 74 49 00 00 A0 40 03 00 00 00 00 06 01 00 00 00 00 00 24 74 49 00 00 A0 40 03 00 00 00 00 06 01 0A D7 23 3C 00 00 C0 40 00 00 80 3F 01 00 00 80 3F 06 01 00 00 00 00 00 24 74 49 00 00 A0 40 03 00 00 00 00 06 01 00 00 00 00 00 24 74 49 00 00 A0 40 03 00 00 00 00 06 01 00 00 00 00 00 24 74 49 00 00 A0 40 03 00 00 00 00 06 9C 16 
Slave  >>
Master >>35 10 15 49 00 01 02 00 00 8A 09 
Slave  >>69 35 10 15 07 00 4C 70 
Сеанс записи завершен-------------------------



Адрес: 53
Счётчики:
	1: 4
	2: 5
	3: 6

Веса импульсов: 
	1: 10
	2: 
	3: 10




Начало сеанса записи

Master >>35 03 00 00 00 01 80 7E 
Slave  >>35 03 08 32 32 34 34 32 30 35 33 02 AB 
Ключ для записи значений: 32 32 34 34 32 30 35 33 
Master >>35 03 15 7E 00 02 A4 6B 
Slave  >>35 03 04 00 00 80 3F AE 20 
Master >>35 03 15 80 00 02 C5 9B 
Slave  >>35 03 04 00 00 00 40 8E 00 
Master >>35 03 15 82 00 02 64 5B 
Slave  >>35 03 04 00 00 40 40 BF C0 
Старые показания 1: 1.0
Старые показания 2: 2.0
Старые показания 3: 3.0
Master >>35 10 15 49 00 01 02 53 00 B6 F9 
Slave  >>
Master >>35 10 16 8C 00 04 08 32 32 34 34 32 30 35 33 DA 19 
Slave  >>
Master >>35 10 16 7A 00 04 08 00 00 40 40 1C F7 19 00 5E A1 
Slave  >>
Master >>35 10 16 8C 00 04 08 32 32 34 34 32 30 35 33 DA 19 
Slave  >>
Master >>35 10 16 7C 00 04 08 00 00 40 40 1C F7 19 00 56 A9 
Slave  >>
Master >>35 10 16 8C 00 04 08 32 32 34 34 32 30 35 33 DA 19 
Slave  >>
Master >>35 10 16 7E 00 04 08 00 00 40 40 1C F7 19 00 AF 6E 
Slave  >>
Master >>35 10 15 49 00 01 02 00 00 8A 09 
Slave  >>


Запись показаний завершена

Начинается запись весов
Master >>35 10 15 49 00 01 02 53 00 B6 F9 
Slave  >>35 10 15 49 00 01 D0 67 
Master >>35 03 15 07 00 01 35 B3 
Slave  >>35 03 60 01 0A D7 23 3C 00 00 C0 40 00 00 80 3F 01 00 00 80 3F 06 01 00 00 00 00 00 24 74 49 00 00 A0 40 03 00 00 00 00 06 01 00 00 00 00 00 24 74 49 00 00 A0 40 03 00 00 00 00 06 01 00 00 00 00 00 24 74 49 00 00 A0 40 03 00 00 00 00 06 01 0A D7 23 3C 00 00 C0 40 00 00 80 3F 01 00 00 80 3F 06 00 61 
Старое значение весов 1: 5.0
Старое значение весов 2: 5.0
Старое значение весов 3: 5.0
Master >>35 10 15 07 00 4C 98 01 0A D7 23 3C 00 00 C0 40 00 00 80 3F 01 00 00 80 3F 06 01 00 00 00 00 00 24 74 49 00 00 20 41 03 00 00 00 00 06 01 00 00 00 00 00 24 74 49 00 00 A0 40 03 00 00 00 00 06 01 00 00 00 00 00 24 74 49 00 00 20 41 03 00 00 00 00 06 01 0A D7 23 3C 00 00 C0 40 00 00 80 3F 01 00 00 80 3F 06 01 00 00 00 00 00 24 74 49 00 00 20 41 03 00 00 00 00 06 01 00 00 00 00 00 24 74 49 00 00 A0 40 03 00 00 00 00 06 01 00 00 00 00 00 24 74 49 00 00 20 41 03 00 00 00 00 06 DD A7 
Slave  >>
Master >>35 10 15 49 00 01 02 00 00 8A 09 
Slave  >>88 35 10 15 07 00 4C 70 
Сеанс записи завершен-------------------------



Адрес: 53
Счётчики:
	1: 9
	2: 9
	3: 9

Веса импульсов: 
	1: 
	2: 
	3: 




Начало сеанса записи

Master >>35 03 00 00 00 01 80 7E 
Slave  >>35 03 08 32 32 34 34 32 30 35 33 02 AB 
Ключ для записи значений: 32 32 34 34 32 30 35 33 
Master >>35 03 15 7E 00 02 A4 6B 
Slave  >>35 03 04 00 00 80 40 EF C0 
Master >>35 03 15 80 00 02 C5 9B 
Slave  >>35 03 04 00 00 A0 40 F6 00 
Master >>35 03 15 82 00 02 64 5B 
Slave  >>35 03 04 00 00 C0 40 DE 00 
Старые показания 1: 4.0
Старые показания 2: 5.0
Старые показания 3: 6.0
Master >>35 10 15 49 00 01 02 53 00 B6 F9 
Slave  >>
Master >>35 10 16 8C 00 04 08 32 32 34 34 32 30 35 33 DA 19 
Slave  >>
Master >>35 10 16 7A 00 04 08 00 00 A0 40 1C F7 19 00 48 C1 
Slave  >>
Master >>35 10 16 8C 00 04 08 32 32 34 34 32 30 35 33 DA 19 
Slave  >>
Master >>35 10 16 7C 00 04 08 00 00 80 40 1C F7 19 00 47 A9 
Slave  >>
Master >>35 10 16 8C 00 04 08 32 32 34 34 32 30 35 33 DA 19 
Slave  >>
Master >>35 10 16 7E 00 04 08 00 00 40 40 1C F7 19 00 AF 6E 
Slave  >>
Master >>35 10 15 49 00 01 02 00 00 8A 09 
Slave  >>


Запись показаний завершена

Начинается запись весов
Master >>35 10 15 49 00 01 02 53 00 B6 F9 
Slave  >>35 10 15 49 00 01 D0 67 
Master >>35 03 15 07 00 01 35 B3 
Slave  >>35 03 60 01 0A D7 23 3C 00 00 C0 40 00 00 80 3F 01 00 00 80 3F 06 01 00 00 00 00 00 24 74 49 00 00 20 41 03 00 00 00 00 06 01 00 00 00 00 00 24 74 49 00 00 A0 40 03 00 00 00 00 06 01 00 00 00 00 00 24 74 49 00 00 20 41 03 00 00 00 00 06 01 0A D7 23 3C 00 00 C0 40 00 00 80 3F 01 00 00 80 3F 06 00 C8 
Старое значение весов 1: 10.0
Старое значение весов 2: 5.0
Старое значение весов 3: 10.0
Master >>35 10 15 07 00 4C 98 01 0A D7 23 3C 00 00 C0 40 00 00 80 3F 01 00 00 80 3F 06 01 00 00 00 00 00 24 74 49 00 00 20 41 03 00 00 00 00 06 01 00 00 00 00 00 24 74 49 00 00 A0 40 03 00 00 00 00 06 01 00 00 00 00 00 24 74 49 00 00 20 41 03 00 00 00 00 06 01 0A D7 23 3C 00 00 C0 40 00 00 80 3F 01 00 00 80 3F 06 01 00 00 00 00 00 24 74 49 00 00 20 41 03 00 00 00 00 06 01 00 00 00 00 00 24 74 49 00 00 A0 40 03 00 00 00 00 06 01 00 00 00 00 00 24 74 49 00 00 20 41 03 00 00 00 00 06 DD A7 
Slave  >>
Master >>35 10 15 49 00 01 02 00 00 8A 09 
Slave  >>33 35 10 15 07 00 4C 70 
Сеанс записи завершен-------------------------



Адрес: 53
Счётчики:
	1: 5
	2: 5
	3: 5

Веса импульсов: 
	1: 7
	2: 7
	3: 7




Начало сеанса записи

Master >>35 03 00 00 00 01 80 7E 
Slave  >>35 03 08 32 32 34 34 32 30 35 33 02 AB 
Ключ для записи значений: 32 32 34 34 32 30 35 33 
Master >>35 03 15 7E 00 02 A4 6B 
Slave  >>35 03 04 00 00 10 41 42 00 
Master >>35 03 15 80 00 02 C5 9B 
Slave  >>35 03 04 00 00 10 41 42 00 
Master >>35 03 15 82 00 02 64 5B 
Slave  >>35 03 04 00 00 10 41 42 00 
Старые показания 1: 9.0
Старые показания 2: 9.0
Старые показания 3: 9.0
Master >>35 10 15 49 00 01 02 53 00 B6 F9 
Slave  >>
Master >>35 10 16 8C 00 04 08 32 32 34 34 32 30 35 33 DA 19 
Slave  >>
Master >>35 10 16 7A 00 04 08 00 00 80 C0 1C F7 19 00 4E 7F 
Slave  >>
Master >>35 10 16 8C 00 04 08 32 32 34 34 32 30 35 33 DA 19 
Slave  >>
Master >>35 10 16 7C 00 04 08 00 00 80 C0 1C F7 19 00 46 77 
Slave  >>
Master >>35 10 16 8C 00 04 08 32 32 34 34 32 30 35 33 DA 19 
Slave  >>
Master >>35 10 16 7E 00 04 08 00 00 80 C0 1C F7 19 00 BF B0 
Slave  >>
Master >>35 10 15 49 00 01 02 00 00 8A 09 
Slave  >>


Запись показаний завершена

Начинается запись весов
Master >>35 10 15 49 00 01 02 53 00 B6 F9 
Slave  >>35 10 15 49 00 01 D0 67 
Master >>35 03 15 07 00 01 35 B3 
Slave  >>35 03 60 01 0A D7 23 3C 00 00 C0 40 00 00 80 3F 01 00 00 80 3F 06 01 00 00 00 00 00 24 74 49 00 00 20 41 03 00 00 00 00 06 01 00 00 00 00 00 24 74 49 00 00 A0 40 03 00 00 00 00 06 01 00 00 00 00 00 24 74 49 00 00 20 41 03 00 00 00 00 06 01 0A D7 23 3C 00 00 C0 40 00 00 80 3F 01 00 00 80 3F 06 00 C8 
Старое значение весов 1: 10.0
Старое значение весов 2: 5.0
Старое значение весов 3: 10.0
Master >>35 10 15 07 00 4C 98 01 0A D7 23 3C 00 00 C0 40 00 00 80 3F 01 00 00 80 3F 06 01 00 00 00 00 00 24 74 49 00 00 E0 40 03 00 00 00 00 06 01 00 00 00 00 00 24 74 49 00 00 E0 40 03 00 00 00 00 06 01 00 00 00 00 00 24 74 49 00 00 E0 40 03 00 00 00 00 06 01 0A D7 23 3C 00 00 C0 40 00 00 80 3F 01 00 00 80 3F 06 01 00 00 00 00 00 24 74 49 00 00 E0 40 03 00 00 00 00 06 01 00 00 00 00 00 24 74 49 00 00 E0 40 03 00 00 00 00 06 01 00 00 00 00 00 24 74 49 00 00 E0 40 03 00 00 00 00 06 67 95 
Slave  >>
Master >>35 10 15 49 00 01 02 00 00 8A 09 
Slave  >>33 35 10 15 07 00 4C 70 
Сеанс записи завершен-------------------------



Адрес: 53
Счётчики:
	1: 1.59
	2: 1.69
	3: 0

Веса импульсов: 
	1: 10
	2: 10
	3: 10




Начало сеанса записи

Master >>35 03 00 00 00 01 80 7E 
Slave  >>35 03 08 32 32 34 34 32 30 35 33 02 AB 
Ключ для записи значений: 32 32 34 34 32 30 35 33 
Master >>35 03 15 7E 00 02 A4 6B 
Slave  >>35 03 04 00 00 10 41 42 00 
Master >>35 03 15 80 00 02 C5 9B 
Slave  >>35 03 04 00 00 A0 40 F6 00 
Master >>35 03 15 82 00 02 64 5B 
Slave  >>35 03 04 00 00 A0 40 F6 00 
Старые показания 1: 9.0
Старые показания 2: 5.0
Старые показания 3: 5.0
Master >>35 10 15 49 00 01 02 53 00 B6 F9 
Slave  >>
Master >>35 10 16 8C 00 04 08 32 32 34 34 32 30 35 33 DA 19 
Slave  >>
Master >>35 10 16 7A 00 04 08 B8 1E ED C0 1C F7 19 00 B2 11 
Slave  >>
Master >>35 10 16 8C 00 04 08 32 32 34 34 32 30 35 33 DA 19 
Slave  >>
Master >>35 10 16 7C 00 04 08 0A D7 53 C0 1C F7 19 00 72 A6 
Slave  >>
Master >>35 10 16 8C 00 04 08 32 32 34 34 32 30 35 33 DA 19 
Slave  >>
Master >>35 10 16 7E 00 04 08 00 00 A0 C0 1C F7 19 00 B8 D0 
Slave  >>
Master >>35 10 15 49 00 01 02 00 00 8A 09 
Slave  >>


Запись показаний завершена

Начинается запись весов
Master >>35 10 15 49 00 01 02 53 00 B6 F9 
Slave  >>35 10 15 49 00 01 D0 67 
Master >>35 03 15 07 00 01 35 B3 
Slave  >>35 03 60 01 0A D7 23 3C 00 00 C0 40 00 00 80 3F 01 00 00 80 3F 06 01 00 00 00 00 00 24 74 49 00 00 E0 40 03 00 00 00 00 06 01 00 00 00 00 00 24 74 49 00 00 E0 40 03 00 00 00 00 06 01 00 00 00 00 00 24 74 49 00 00 E0 40 03 00 00 00 00 06 01 0A D7 23 3C 00 00 C0 40 00 00 80 3F 01 00 00 80 3F 06 00 F7 
Старое значение весов 1: 7.0
Старое значение весов 2: 7.0
Старое значение весов 3: 7.0
Master >>35 10 15 07 00 4C 98 01 0A D7 23 3C 00 00 C0 40 00 00 80 3F 01 00 00 80 3F 06 01 00 00 00 00 00 24 74 49 00 00 20 41 03 00 00 00 00 06 01 00 00 00 00 00 24 74 49 00 00 20 41 03 00 00 00 00 06 01 00 00 00 00 00 24 74 49 00 00 20 41 03 00 00 00 00 06 01 0A D7 23 3C 00 00 C0 40 00 00 80 3F 01 00 00 80 3F 06 01 00 00 00 00 00 24 74 49 00 00 20 41 03 00 00 00 00 06 01 00 00 00 00 00 24 74 49 00 00 20 41 03 00 00 00 00 06 01 00 00 00 00 00 24 74 49 00 00 20 41 03 00 00 00 00 06 83 DE 
Slave  >>
Master >>35 10 15 49 00 01 02 00 00 8A 09 
Slave  >>07 35 10 15 07 00 4C 70 
Сеанс записи завершен-------------------------



Адрес: 60
Счётчики:
	1: 0
	2: 0
	3: 0

Веса импульсов: 
	1: 7
	2: 7
	3: 7




Начало сеанса записи

Master >>3C 03 00 00 00 01 80 E7 
Slave  >>3C 03 08 32 32 34 34 32 30 36 30 6C C6 
Ключ для записи значений: 32 32 34 34 32 30 36 30 
Master >>3C 03 15 7E 00 02 A4 F2 
Slave  >>3C 03 04 00 00 00 40 17 00 
Master >>3C 03 15 80 00 02 C5 02 
Slave  >>3C 03 04 00 00 C0 3F 06 E0 
Master >>3C 03 15 82 00 02 64 C2 
Slave  >>3C 03 04 00 00 00 00 16 F0 
Старые показания 1: 2.0
Старые показания 2: 1.5
Старые показания 3: 0.0
Master >>3C 10 15 49 00 01 02 53 00 DC A9 
Slave  >>
Master >>3C 10 16 8C 00 04 08 32 32 34 34 32 30 36 30 53 EE 
Slave  >>
Master >>3C 10 16 7A 00 04 08 00 00 00 C0 1C F7 19 00 98 B9 
Slave  >>
Master >>3C 10 16 8C 00 04 08 32 32 34 34 32 30 36 30 53 EE 
Slave  >>
Master >>3C 10 16 7C 00 04 08 00 00 C0 BF 1C F7 19 00 94 7B 
Slave  >>
Master >>3C 10 16 8C 00 04 08 32 32 34 34 32 30 36 30 53 EE 
Slave  >>
Master >>3C 10 16 7E 00 04 08 00 00 00 00 1C F7 19 00 69 67 
Slave  >>
Master >>3C 10 15 49 00 01 02 00 00 E0 59 
Slave  >>


Запись показаний завершена

Начинается запись весов
Master >>3C 10 15 49 00 01 02 53 00 DC A9 
Slave  >>3C 10 15 49 00 01 D0 FE 
Master >>3C 03 15 07 00 01 35 2A 
Slave  >>3C 03 60 01 0A D7 23 3C 00 00 C0 40 00 00 80 3F 01 00 00 80 3F 06 01 00 00 00 00 00 24 74 49 00 00 20 41 03 00 00 00 00 06 01 00 00 00 00 00 24 74 49 00 00 20 41 03 00 00 00 00 06 01 00 00 00 00 00 24 74 49 00 00 20 41 03 00 00 00 00 06 01 0A D7 23 3C 00 00 C0 40 00 00 80 3F 01 00 00 80 3F 06 00 80 
Старое значение весов 1: 10.0
Старое значение весов 2: 10.0
Старое значение весов 3: 10.0
Master >>3C 10 15 07 00 4C 98 01 0A D7 23 3C 00 00 C0 40 00 00 80 3F 01 00 00 80 3F 06 01 00 00 00 00 00 24 74 49 00 00 E0 40 03 00 00 00 00 06 01 00 00 00 00 00 24 74 49 00 00 E0 40 03 00 00 00 00 06 01 00 00 00 00 00 24 74 49 00 00 E0 40 03 00 00 00 00 06 01 0A D7 23 3C 00 00 C0 40 00 00 80 3F 01 00 00 80 3F 06 01 00 00 00 00 00 24 74 49 00 00 E0 40 03 00 00 00 00 06 01 00 00 00 00 00 24 74 49 00 00 E0 40 03 00 00 00 00 06 01 00 00 00 00 00 24 74 49 00 00 E0 40 03 00 00 00 00 06 2A 96 
Slave  >>
Master >>3C 10 15 49 00 01 02 00 00 E0 59 
Slave  >>6A 3C 10 15 07 00 4C 70 
Сеанс записи завершен-------------------------



Адрес: 60
Счётчики:
	1: 2.0
	2: 1.5
	3: 0

Веса импульсов: 
	1: 9
	2: 
	3: 9




Начало сеанса записи

Master >>3C 03 00 00 00 01 80 E7 
Slave  >>3C 03 08 32 32 34 34 32 30 36 30 6C C6 
Ключ для записи значений: 32 32 34 34 32 30 36 30 
Master >>3C 03 15 7E 00 02 A4 F2 
Slave  >>3C 03 04 00 00 00 00 16 F0 
Master >>3C 03 15 80 00 02 C5 02 
Slave  >>3C 03 04 00 00 00 00 16 F0 
Master >>3C 03 15 82 00 02 64 C2 
Slave  >>3C 03 04 00 00 00 00 16 F0 
Старые показания 1: 0.0
Старые показания 2: 0.0
Старые показания 3: 0.0
Master >>3C 10 15 49 00 01 02 53 00 DC A9 
Slave  >>
Master >>3C 10 16 8C 00 04 08 32 32 34 34 32 30 36 30 53 EE 
Slave  >>
Master >>3C 10 16 7A 00 04 08 00 00 00 40 1C F7 19 00 99 67 
Slave  >>
Master >>3C 10 16 8C 00 04 08 32 32 34 34 32 30 36 30 53 EE 
Slave  >>
Master >>3C 10 16 7C 00 04 08 00 00 C0 3F 1C F7 19 00 95 A5 
Slave  >>
Master >>3C 10 16 8C 00 04 08 32 32 34 34 32 30 36 30 53 EE 
Slave  >>
Master >>3C 10 16 7E 00 04 08 00 00 00 00 1C F7 19 00 69 67 
Slave  >>
Master >>3C 10 15 49 00 01 02 00 00 E0 59 
Slave  >>


Запись показаний завершена

Начинается запись весов
Master >>3C 10 15 49 00 01 02 53 00 DC A9 
Slave  >>3C 10 15 49 00 01 D0 FE 
Master >>3C 03 15 07 00 01 35 2A 
Slave  >>3C 03 60 01 0A D7 23 3C 00 00 C0 40 00 00 80 3F 01 00 00 80 3F 06 01 00 00 00 00 00 24 74 49 00 00 E0 40 03 00 00 00 00 06 01 00 00 00 00 00 24 74 49 00 00 E0 40 03 00 00 00 00 06 01 00 00 00 00 00 24 74 49 00 00 E0 40 03 00 00 00 00 06 01 0A D7 23 3C 00 00 C0 40 00 00 80 3F 01 00 00 80 3F 06 00 67 
Старое значение весов 1: 7.0
Старое значение весов 2: 7.0
Старое значение весов 3: 7.0
Master >>3C 10 15 07 00 4C 98 01 0A D7 23 3C 00 00 C0 40 00 00 80 3F 01 00 00 80 3F 06 01 00 00 00 00 00 24 74 49 00 00 10 41 03 00 00 00 00 06 01 00 00 00 00 00 24 74 49 00 00 E0 40 03 00 00 00 00 06 01 00 00 00 00 00 24 74 49 00 00 10 41 03 00 00 00 00 06 01 0A D7 23 3C 00 00 C0 40 00 00 80 3F 01 00 00 80 3F 06 01 00 00 00 00 00 24 74 49 00 00 10 41 03 00 00 00 00 06 01 00 00 00 00 00 24 74 49 00 00 E0 40 03 00 00 00 00 06 01 00 00 00 00 00 24 74 49 00 00 10 41 03 00 00 00 00 06 DC 7E 
Slave  >>
Master >>3C 10 15 49 00 01 02 00 00 E0 59 
Slave  >>04 3C 10 15 07 00 4C 70 
Сеанс записи завершен-------------------------



Адрес: 60
Счётчики:
	1: 2.0
	2: 1.5
	3: 0

Веса импульсов: 
	1: 
	2: 
	3: 




Начало сеанса записи

Master >>3C 03 00 00 00 01 80 E7 
Slave  >>3C 03 08 32 32 34 34 32 30 36 30 6C C6 
Ключ для записи значений: 32 32 34 34 32 30 36 30 
Master >>3C 03 15 7E 00 02 A4 F2 
Slave  >>3C 03 04 00 00 00 40 17 00 
Master >>3C 03 15 80 00 02 C5 02 
Slave  >>3C 03 04 00 00 C0 3F 06 E0 
Master >>3C 03 15 82 00 02 64 C2 
Slave  >>3C 03 04 00 00 00 00 16 F0 
Старые показания 1: 2.0
Старые показания 2: 1.5
Старые показания 3: 0.0
Master >>3C 10 15 49 00 01 02 53 00 DC A9 
Slave  >>
Master >>3C 10 16 8C 00 04 08 32 32 34 34 32 30 36 30 53 EE 
Slave  >>
Master >>3C 10 16 7A 00 04 08 00 00 00 00 1C F7 19 00 98 A8 
Slave  >>
Master >>3C 10 16 8C 00 04 08 32 32 34 34 32 30 36 30 53 EE 
Slave  >>
Master >>3C 10 16 7C 00 04 08 00 00 00 00 1C F7 19 00 90 A0 
Slave  >>
Master >>3C 10 16 8C 00 04 08 32 32 34 34 32 30 36 30 53 EE 
Slave  >>
Master >>3C 10 16 7E 00 04 08 00 00 00 00 1C F7 19 00 69 67 
Slave  >>
Master >>3C 10 15 49 00 01 02 00 00 E0 59 
Slave  >>


Запись показаний завершена

Начинается запись весов
Master >>3C 10 15 49 00 01 02 53 00 DC A9 
Slave  >>3C 10 15 49 00 01 D0 FE 
Master >>3C 03 15 07 00 01 35 2A 
Slave  >>3C 03 60 01 0A D7 23 3C 00 00 C0 40 00 00 80 3F 01 00 00 80 3F 06 01 00 00 00 00 00 24 74 49 00 00 10 41 03 00 00 00 00 06 01 00 00 00 00 00 24 74 49 00 00 E0 40 03 00 00 00 00 06 01 00 00 00 00 00 24 74 49 00 00 10 41 03 00 00 00 00 06 01 0A D7 23 3C 00 00 C0 40 00 00 80 3F 01 00 00 80 3F 06 00 09 
Старое значение весов 1: 9.0
Старое значение весов 2: 7.0
Старое значение весов 3: 9.0
Master >>3C 10 15 07 00 4C 98 01 0A D7 23 3C 00 00 C0 40 00 00 80 3F 01 00 00 80 3F 06 01 00 00 00 00 00 24 74 49 00 00 10 41 03 00 00 00 00 06 01 00 00 00 00 00 24 74 49 00 00 E0 40 03 00 00 00 00 06 01 00 00 00 00 00 24 74 49 00 00 10 41 03 00 00 00 00 06 01 0A D7 23 3C 00 00 C0 40 00 00 80 3F 01 00 00 80 3F 06 01 00 00 00 00 00 24 74 49 00 00 10 41 03 00 00 00 00 06 01 00 00 00 00 00 24 74 49 00 00 E0 40 03 00 00 00 00 06 01 00 00 00 00 00 24 74 49 00 00 10 41 03 00 00 00 00 06 DC 7E 
Slave  >>
Master >>3C 10 15 49 00 01 02 00 00 E0 59 
Slave  >>24 3C 10 15 07 00 4C 70 
Сеанс записи завершен-------------------------



Адрес: 60
Счётчики:
	1: 2.0
	2: 1.5
	3: 0

Веса импульсов: 
	1: 10
	2: 10
	3: 10




Начало сеанса записи

Master >>3C 03 00 00 00 01 80 E7 
Slave  >>3C 03 08 32 32 34 34 32 30 36 30 6C C6 
Ключ для записи значений: 32 32 34 34 32 30 36 30 
Master >>3C 03 15 7E 00 02 A4 F2 
Slave  >>3C 03 04 00 00 00 40 17 00 
Master >>3C 03 15 80 00 02 C5 02 
Slave  >>3C 03 04 00 00 C0 3F 06 E0 
Master >>3C 03 15 82 00 02 64 C2 
Slave  >>3C 03 04 00 00 00 00 16 F0 
Старые показания 1: 2.0
Старые показания 2: 1.5
Старые показания 3: 0.0
Master >>3C 10 15 49 00 01 02 53 00 DC A9 
Slave  >>
Master >>3C 10 16 8C 00 04 08 32 32 34 34 32 30 36 30 53 EE 
Slave  >>
Master >>3C 10 16 7A 00 04 08 00 00 00 00 1C F7 19 00 98 A8 
Slave  >>
Master >>3C 10 16 8C 00 04 08 32 32 34 34 32 30 36 30 53 EE 
Slave  >>
Master >>3C 10 16 7C 00 04 08 00 00 00 00 1C F7 19 00 90 A0 
Slave  >>
Master >>3C 10 16 8C 00 04 08 32 32 34 34 32 30 36 30 53 EE 
Slave  >>
Master >>3C 10 16 7E 00 04 08 00 00 00 00 1C F7 19 00 69 67 
Slave  >>
Master >>3C 10 15 49 00 01 02 00 00 E0 59 
Slave  >>


Запись показаний завершена

Начинается запись весов
Master >>3C 10 15 49 00 01 02 53 00 DC A9 
Slave  >>3C 10 15 49 00 01 D0 FE 
Master >>3C 03 15 07 00 01 35 2A 
Slave  >>3C 03 60 01 0A D7 23 3C 00 00 C0 40 00 00 80 3F 01 00 00 80 3F 06 01 00 00 00 00 00 24 74 49 00 00 10 41 03 00 00 00 00 06 01 00 00 00 00 00 24 74 49 00 00 E0 40 03 00 00 00 00 06 01 00 00 00 00 00 24 74 49 00 00 10 41 03 00 00 00 00 06 01 0A D7 23 3C 00 00 C0 40 00 00 80 3F 01 00 00 80 3F 06 00 09 
Старое значение весов 1: 9.0
Старое значение весов 2: 7.0
Старое значение весов 3: 9.0
Master >>3C 10 15 07 00 4C 98 01 0A D7 23 3C 00 00 C0 40 00 00 80 3F 01 00 00 80 3F 06 01 00 00 00 00 00 24 74 49 00 00 20 41 03 00 00 00 00 06 01 00 00 00 00 00 24 74 49 00 00 20 41 03 00 00 00 00 06 01 00 00 00 00 00 24 74 49 00 00 20 41 03 00 00 00 00 06 01 0A D7 23 3C 00 00 C0 40 00 00 80 3F 01 00 00 80 3F 06 01 00 00 00 00 00 24 74 49 00 00 20 41 03 00 00 00 00 06 01 00 00 00 00 00 24 74 49 00 00 20 41 03 00 00 00 00 06 01 00 00 00 00 00 24 74 49 00 00 20 41 03 00 00 00 00 06 CE DD 
Slave  >>
Master >>3C 10 15 49 00 01 02 00 00 E0 59 
Slave  >>24 3C 10 15 07 00 4C 70 
Сеанс записи завершен-------------------------
Все сеансы записи успешно завершены
=============================================
